! Mini-Circuits  
! S2P DATA File Format
! Type: MMIC Amplifier
! Model: GALI-74+
! TEST CONDITIONS: INPUT POWER = -20dBm, Icc = 80mA, Vd = 4.70V @Temperature = +85degC
! 401 Frequency points
!
! S Parameters are in dB deg format
!
# MHz S DB R 50
!    FREQ       dB(S11)   PHS(S11)  dB(S21)   PHS(S21)  dB(S12)   PHS(S12)  dB(S22)   PHS(S22) 
   50.000000   -27.146  -178.256    24.875   171.664   -27.992    -3.090   -17.752  -179.691 
   60.000000   -27.706  -176.861    24.858   170.129   -28.091    -2.957   -17.801  -179.136 
   70.000000   -27.279  -174.584    24.840   168.575   -27.837    -4.865   -17.436  -178.266 
   80.000000   -26.729  -176.825    24.827   167.212   -27.963    -5.099   -17.252  -178.649 
   95.000000   -25.903  -179.237    24.795   164.995   -27.972    -4.219   -17.026  -178.056 
  105.000000   -25.711  -179.355    24.775   163.546   -28.026    -5.749   -16.831  -178.207 
  120.000000   -25.480  -177.571    24.743   161.363   -27.934    -6.439   -16.721  -177.747 
  130.000000   -25.086  -176.344    24.713   159.823   -27.961    -7.028   -16.598  -177.861 
  145.000000   -24.862  -176.441    24.683   157.646   -27.968    -7.700   -16.404  -177.379 
  155.000000   -24.508  -176.872    24.664   156.132   -27.939    -7.857   -16.241  -177.836 
  170.000000   -24.443  -177.029    24.623   153.955   -27.996    -9.108   -15.988  -177.988 
  180.000000   -24.033  -177.513    24.606   152.458   -28.005    -9.335   -15.892  -178.058 
  195.000000   -24.003  -179.202    24.568   150.354   -27.842   -10.356   -15.743  -178.251 
  205.000000   -23.862   179.904    24.544   148.926   -27.871   -10.533   -15.664  -178.701 
  220.000000   -23.816  -179.136    24.503   146.728   -27.948   -11.745   -15.559  -178.822 
  230.000000   -23.711  -178.336    24.472   145.309   -27.844   -11.880   -15.438  -178.957 
  245.000000   -23.454  -178.704    24.426   143.146   -27.906   -12.952   -15.295  -179.554 
  255.000000   -23.646  -178.454    24.407   141.757   -27.926   -13.586   -15.250  -179.921 
  270.000000   -23.515  -178.007    24.367   139.669   -27.823   -14.402   -15.156   179.745 
  280.000000   -23.490  -177.418    24.348   138.219   -27.824   -14.914   -15.055   179.303 
  295.000000   -23.601  -178.740    24.294   136.105   -27.838   -15.527   -14.995   178.892 
  305.000000   -23.645  -178.484    24.275   134.670   -27.833   -15.989   -14.878   178.356 
  320.000000   -23.730  -179.951    24.223   132.663   -27.851   -16.764   -14.779   177.917 
  330.000000   -23.667  -179.662    24.198   131.250   -27.795   -17.728   -14.700   177.404 
  345.000000   -23.630   179.733    24.141   129.135   -27.769   -18.504   -14.617   176.901 
  355.000000   -23.616   179.028    24.100   127.754   -27.773   -18.974   -14.543   176.140 
  370.000000   -23.505   179.449    24.064   125.735   -27.840   -19.947   -14.478   175.578 
  380.000000   -23.528   179.712    24.036   124.322   -27.747   -20.464   -14.434   174.932 
  395.000000   -23.657   179.421    23.990   122.321   -27.752   -21.170   -14.337   174.123 
  405.000000   -23.650   178.941    23.963   120.954   -27.678   -22.037   -14.299   173.599 
  420.000000   -23.668   178.224    23.916   118.948   -27.758   -22.378   -14.164   172.250 
  430.000000   -23.491   177.310    23.872   117.594   -27.725   -23.214   -14.104   171.541 
  445.000000   -23.335   175.988    23.829   115.481   -27.679   -24.172   -13.948   170.202 
  455.000000   -23.325   176.522    23.801   114.147   -27.701   -24.435   -13.904   169.578 
  470.000000   -23.226   175.692    23.747   112.171   -27.622   -25.209   -13.840   168.535 
  480.000000   -23.148   175.030    23.716   110.745   -27.645   -25.826   -13.762   167.732 
  495.000000   -23.199   175.197    23.669   108.769   -27.636   -26.885   -13.654   166.649 
  505.000000   -23.069   174.259    23.625   107.437   -27.638   -27.332   -13.561   165.589 
  520.000000   -22.951   173.044    23.568   105.475   -27.610   -28.057   -13.487   164.608 
  530.000000   -22.923   173.668    23.546   104.165   -27.608   -29.059   -13.379   163.714 
  545.000000   -22.815   172.077    23.483   102.120   -27.609   -29.697   -13.313   162.599 
  555.000000   -22.838   171.487    23.459   100.854   -27.575   -30.241   -13.237   161.727 
  570.000000   -22.768   170.996    23.397    98.850   -27.582   -30.970   -13.139   160.504 
  580.000000   -22.686   170.179    23.361    97.556   -27.565   -31.611   -13.090   159.709 
  595.000000   -22.658   170.202    23.312    95.586   -27.551   -32.646   -12.999   158.602 
  605.000000   -22.673   169.375    23.268    94.311   -27.543   -33.114   -12.941   157.710 
  620.000000   -22.585   169.007    23.226    92.395   -27.528   -33.831   -12.856   156.637 
  630.000000   -22.588   168.863    23.191    91.040   -27.506   -34.548   -12.792   155.997 
  645.000000   -22.469   168.045    23.123    89.065   -27.470   -35.435   -12.731   154.850 
  655.000000   -22.364   167.372    23.086    87.855   -27.474   -35.839   -12.695   153.922 
  670.000000   -22.338   166.826    23.028    85.849   -27.474   -36.968   -12.575   152.524 
  680.000000   -22.404   166.416    22.998    84.636   -27.457   -37.427   -12.526   151.581 
  695.000000   -22.351   166.020    22.954    82.684   -27.456   -38.300   -12.445   150.478 
  705.000000   -22.373   164.728    22.912    81.441   -27.426   -38.955   -12.392   149.751 
  720.000000   -22.276   164.829    22.862    79.547   -27.452   -39.690   -12.341   148.706 
  730.000000   -22.341   164.995    22.820    78.261   -27.424   -40.444   -12.305   147.948 
  745.000000   -22.277   164.193    22.758    76.381   -27.373   -41.002   -12.263   146.790 
  755.000000   -22.212   163.622    22.733    75.114   -27.371   -41.695   -12.191   145.818 
  770.000000   -22.189   162.622    22.677    73.246   -27.367   -42.750   -12.144   144.555 
  780.000000   -22.110   162.538    22.643    71.962   -27.351   -43.098   -12.102   143.583 
  795.000000   -22.000   161.879    22.582    70.183   -27.341   -44.193   -12.040   142.270 
  805.000000   -21.921   161.542    22.543    68.871   -27.317   -44.712   -11.985   141.282 
  820.000000   -21.876   160.220    22.483    67.011   -27.316   -45.667   -11.932   140.006 
  830.000000   -21.835   159.658    22.443    65.691   -27.295   -46.092   -11.917   138.914 
  845.000000   -21.842   159.676    22.384    63.909   -27.288   -47.084   -11.892   137.982 
  855.000000   -21.822   159.407    22.349    62.651   -27.280   -47.578   -11.865   137.100 
  870.000000   -21.737   159.667    22.286    60.818   -27.230   -48.462   -11.807   135.900 
  880.000000   -21.653   158.680    22.248    59.569   -27.239   -49.162   -11.767   134.979 
  895.000000   -21.562   157.948    22.196    57.781   -27.214   -49.811   -11.690   133.372 
  905.000000   -21.493   157.097    22.159    56.547   -27.201   -50.443   -11.662   132.433 
  920.000000   -21.375   156.345    22.104    54.675   -27.181   -51.549   -11.590   130.974 
  930.000000   -21.313   155.255    22.053    53.439   -27.177   -52.029   -11.576   130.032 
  945.000000   -21.179   155.537    21.999    51.651   -27.159   -52.937   -11.518   128.823 
  955.000000   -21.169   154.532    21.953    50.424   -27.136   -53.535   -11.495   128.013 
  970.000000   -21.155   154.182    21.907    48.701   -27.106   -54.462   -11.414   126.517 
  980.000000   -21.019   153.629    21.864    47.405   -27.086   -55.098   -11.398   125.649 
  995.000000   -21.009   152.324    21.803    45.638   -27.086   -55.852   -11.324   124.270 
 1005.000000   -20.980   151.931    21.768    44.474   -27.056   -56.464   -11.305   123.304 
 1020.000000   -20.883   150.713    21.716    42.665   -27.036   -57.485   -11.262   122.014 
 1030.000000   -20.746   150.409    21.674    41.473   -27.024   -58.134   -11.234   121.066 
 1045.000000   -20.642   149.932    21.610    39.646   -26.997   -59.080   -11.192   119.768 
 1055.000000   -20.631   149.224    21.571    38.487   -27.002   -59.544   -11.141   118.711 
 1070.000000   -20.564   147.985    21.512    36.741   -26.973   -60.530   -11.079   117.398 
 1080.000000   -20.499   147.396    21.471    35.565   -26.952   -61.114   -11.046   116.543 
 1110.000000   -20.587   145.030    21.370    32.088   -26.917   -62.898   -10.954   113.741 
 1130.000000   -20.280   141.418    21.268    29.694   -26.922   -64.050   -10.888   111.931 
 1160.000000   -19.748   142.820    21.174    26.025   -26.835   -65.985   -10.830   109.122 
 1180.000000   -20.234   142.482    21.083    23.962   -26.852   -66.941   -10.774   107.529 
 1210.000000   -19.958   137.322    20.956    20.494   -26.758   -69.042   -10.694   104.891 
 1230.000000   -19.497   137.791    20.907    18.015   -26.735   -70.255   -10.634   103.009 
 1260.000000   -19.753   136.830    20.799    14.788   -26.683   -72.164   -10.566   100.489 
 1280.000000   -19.607   133.054    20.705    12.408   -26.692   -73.327   -10.523    98.638 
 1310.000000   -19.012   132.684    20.594     8.894   -26.608   -75.396   -10.427    95.592 
 1330.000000   -19.267   132.980    20.520     6.825   -26.585   -76.580   -10.369    94.261 
 1360.000000   -19.152   126.743    20.370     3.348   -26.548   -78.602   -10.368    91.285 
 1380.000000   -18.669   126.084    20.335     1.157   -26.542   -79.798   -10.264    89.388 
 1410.000000   -18.782   126.508    20.227    -2.140   -26.451   -81.320   -10.212    86.858 
 1430.000000   -18.756   122.428    20.138    -4.442   -26.444   -82.725   -10.179    84.770 
 1460.000000   -18.365   120.717    20.040    -7.856   -26.388   -84.849   -10.101    82.232 
 1480.000000   -18.401   120.462    19.960    -9.953   -26.361   -86.130   -10.045    80.442 
 1510.000000   -18.437   115.740    19.849   -13.302   -26.345   -87.880   -10.039    77.952 
 1530.000000   -18.040   114.357    19.774   -15.584   -26.316   -89.289    -9.994    75.913 
 1560.000000   -18.027   115.167    19.686   -18.814   -26.228   -91.092    -9.926    73.315 
 1580.000000   -18.143   112.617    19.600   -20.944   -26.170   -92.310    -9.908    71.710 
 1610.000000   -17.648   109.129    19.483   -24.334   -26.187   -94.559    -9.870    69.017 
 1630.000000   -17.513   109.587    19.434   -26.383   -26.147   -95.772    -9.826    67.122 
 1660.000000   -17.646   106.080    19.295   -29.595   -26.102   -97.469    -9.796    64.587 
 1680.000000   -17.414   103.529    19.218   -31.784   -26.061   -98.802    -9.791    62.811 
 1710.000000   -17.209   103.126    19.155   -35.148   -25.992  -101.206    -9.703    60.148 
 1730.000000   -17.358   101.698    19.070   -36.945   -25.944  -101.941    -9.702    58.844 
 1760.000000   -17.017    97.820    18.954   -40.357   -25.951  -104.118    -9.681    55.822 
 1780.000000   -16.820    97.180    18.894   -42.551   -25.904  -105.566    -9.628    53.951 
 1810.000000   -16.945    94.656    18.786   -45.643   -25.847  -107.354    -9.598    51.519 
 1830.000000   -16.789    91.897    18.680   -47.844   -25.805  -108.604    -9.628    49.749 
 1860.000000   -16.436    91.608    18.642   -50.932   -25.750  -110.868    -9.583    47.176 
 1880.000000   -16.520    90.007    18.565   -52.820   -25.708  -112.256    -9.553    45.434 
 1910.000000   -16.343    86.149    18.446   -56.306   -25.713  -114.098    -9.522    42.965 
 1930.000000   -16.146    85.599    18.403   -58.394   -25.654  -115.818    -9.505    41.260 
 1960.000000   -16.165    83.495    18.299   -61.347   -25.614  -117.498    -9.461    38.704 
 1980.000000   -15.968    81.047    18.247   -63.733   -25.560  -119.175    -9.473    36.792 
 2010.000000   -15.833    78.840    18.138   -66.693   -25.529  -121.399    -9.437    34.041 
 2030.000000   -15.812    77.614    18.072   -68.793   -25.477  -122.512    -9.401    32.185 
 2060.000000   -15.778    74.138    17.965   -71.974   -25.454  -124.669    -9.428    29.950 
 2080.000000   -15.692    73.076    17.913   -74.057   -25.439  -126.042    -9.439    27.911 
 2110.000000   -15.549    71.455    17.814   -77.041   -25.356  -128.131    -9.418    25.367 
 2130.000000   -15.529    69.607    17.744   -79.219   -25.340  -129.086    -9.387    23.755 
 2160.000000   -15.256    67.478    17.664   -82.393   -25.291  -131.556    -9.404    21.184 
 2180.000000   -15.295    66.415    17.593   -84.310   -25.246  -133.137    -9.383    19.365 
 2210.000000   -15.194    63.040    17.493   -87.411   -25.231  -134.806    -9.427    16.991 
 2230.000000   -14.986    61.635    17.452   -89.480   -25.195  -136.232    -9.420    15.049 
 2260.000000   -14.844    60.270    17.375   -92.418   -25.080  -138.470    -9.405    12.505 
 2280.000000   -14.905    58.570    17.286   -94.464   -25.104  -139.793    -9.366    11.211 
 2310.000000   -14.741    55.616    17.208   -97.780   -25.039  -141.890    -9.411     8.461 
 2330.000000   -14.695    54.545    17.175   -99.732   -24.996  -143.469    -9.391     6.329 
 2360.000000   -14.622    51.792    17.049  -102.830   -24.965  -145.599    -9.366     3.702 
 2380.000000   -14.526    50.096    16.997  -104.863   -25.008  -147.172    -9.395     2.075 
 2410.000000   -14.419    48.339    16.919  -107.865   -24.883  -149.204    -9.401    -0.490 
 2430.000000   -14.419    46.578    16.860  -109.860   -24.851  -150.387    -9.433    -2.281 
 2460.000000   -14.203    44.097    16.791  -112.949   -24.810  -152.558    -9.447    -4.739 
 2480.000000   -14.159    42.890    16.745  -114.887   -24.795  -154.127    -9.412    -6.582 
 2510.000000   -14.087    40.339    16.640  -117.927   -24.712  -156.227    -9.370    -8.982 
 2530.000000   -14.003    38.645    16.602  -120.026   -24.682  -157.766    -9.381   -10.668 
 2560.000000   -13.938    36.396    16.525  -123.112   -24.679  -160.161    -9.402   -13.640 
 2580.000000   -13.952    34.763    16.439  -125.058   -24.610  -161.450    -9.439   -15.259 
 2610.000000   -13.775    32.245    16.370  -128.070   -24.555  -163.246    -9.425   -17.722 
 2630.000000   -13.730    30.871    16.334  -130.050   -24.570  -165.031    -9.421   -19.185 
 2660.000000   -13.674    27.697    16.236  -133.174   -24.488  -167.207    -9.405   -22.063 
 2680.000000   -13.590    26.772    16.193  -135.248   -24.462  -168.575    -9.374   -23.719 
 2710.000000   -13.533    24.056    16.116  -138.234   -24.442  -171.100    -9.374   -26.589 
 2730.000000   -13.512    22.443    16.053  -140.136   -24.426  -172.643    -9.432   -28.379 
 2760.000000   -13.527    20.087    15.970  -143.303   -24.388  -174.843    -9.425   -31.046 
 2780.000000   -13.432    18.259    15.920  -145.111   -24.355  -176.200    -9.458   -32.697 
 2810.000000   -13.293    15.545    15.863  -148.195   -24.287  -178.573    -9.454   -35.505 
 2830.000000   -13.308    14.664    15.798  -150.064   -24.251  -179.785    -9.442   -37.029 
 2860.000000   -13.238    12.794    15.755  -152.995   -24.247   177.942    -9.496   -39.389 
 2880.000000   -13.223    10.493    15.695  -154.980   -24.185   176.432    -9.461   -41.225 
 2910.000000   -13.136     7.839    15.595  -158.167   -24.115   174.085    -9.443   -44.007 
 2930.000000   -13.070     6.030    15.567  -160.123   -24.120   172.629    -9.478   -45.894 
 2960.000000   -13.002     3.867    15.499  -163.012   -24.090   170.444    -9.467   -48.409 
 2980.000000   -12.901     2.087    15.443  -165.173   -24.024   168.679    -9.474   -50.291 
 3010.000000   -12.945    -0.531    15.358  -168.085   -24.011   166.570    -9.518   -52.936 
 3030.000000   -12.942    -2.692    15.320  -169.971   -24.014   164.755    -9.528   -54.648 
 3060.000000   -12.775    -4.328    15.255  -173.062   -23.941   162.719    -9.521   -57.372 
 3080.000000   -12.803    -5.862    15.206  -174.932   -23.966   161.214    -9.517   -58.974 
 3110.000000   -12.786    -8.903    15.141  -177.946   -23.900   159.153    -9.565   -61.704 
 3130.000000   -12.746   -10.222    15.102  -179.976   -23.887   157.255    -9.587   -63.681 
 3160.000000   -12.718   -12.571    15.017   177.105   -23.899   155.349    -9.628   -66.044 
 3180.000000   -12.652   -14.207    14.980   175.150   -23.839   153.920    -9.616   -67.675 
 3210.000000   -12.537   -16.167    14.938   172.211   -23.747   151.449    -9.616   -70.068 
 3230.000000   -12.541   -17.813    14.880   170.353   -23.744   150.233    -9.641   -71.603 
 3260.000000   -12.484   -21.435    14.811   167.170   -23.673   147.527    -9.614   -74.702 
 3280.000000   -12.349   -22.639    14.784   165.118   -23.639   145.652    -9.616   -76.539 
 3310.000000   -12.448   -24.605    14.713   162.411   -23.639   143.633    -9.635   -79.055 
 3330.000000   -12.413   -27.536    14.634   160.113   -23.591   142.006    -9.624   -80.850 
 3360.000000   -12.298   -29.707    14.636   157.353   -23.586   139.633    -9.692   -83.553 
 3380.000000   -12.362   -31.242    14.565   155.522   -23.518   138.022    -9.665   -85.562 
 3410.000000   -12.333   -33.776    14.510   152.353   -23.510   135.664    -9.679   -88.024 
 3430.000000   -12.276   -35.683    14.464   150.309   -23.486   134.083    -9.691   -89.818 
 3460.000000   -12.270   -37.626    14.428   147.525   -23.404   131.726    -9.732   -92.691 
 3480.000000   -12.320   -40.529    14.353   145.477   -23.409   129.936    -9.739   -94.769 
 3510.000000   -12.185   -42.590    14.313   142.329   -23.418   127.747    -9.766   -97.519 
 3530.000000   -12.172   -43.624    14.295   140.355   -23.351   126.100    -9.783   -99.411 
 3560.000000   -12.290   -46.704    14.186   137.773   -23.375   123.892    -9.782  -101.646 
 3580.000000   -12.191   -48.721    14.170   135.519   -23.321   122.157    -9.823  -103.524 
 3610.000000   -12.131   -50.941    14.150   132.595   -23.252   119.747    -9.814  -106.387 
 3630.000000   -12.158   -52.745    14.089   130.739   -23.246   118.256    -9.790  -108.288 
 3660.000000   -12.065   -55.840    14.030   127.551   -23.203   115.542    -9.813  -111.119 
 3680.000000   -12.125   -57.269    13.989   125.682   -23.161   113.869    -9.816  -113.080 
 3710.000000   -12.171   -60.138    13.934   122.936   -23.176   111.789    -9.875  -115.824 
 3730.000000   -12.089   -62.145    13.876   120.731   -23.156   110.240    -9.876  -117.687 
 3760.000000   -12.047   -64.096    13.859   117.724   -23.089   107.715    -9.878  -120.488 
 3780.000000   -12.149   -66.086    13.800   115.916   -23.101   105.864    -9.875  -122.310 
 3810.000000   -12.123   -69.439    13.718   112.886   -23.083   103.469    -9.926  -125.440 
 3830.000000   -11.990   -70.746    13.721   110.775   -23.017   101.863    -9.935  -127.375 
 3860.000000   -12.055   -73.036    13.678   108.076   -22.984    99.666    -9.925  -130.082 
 3880.000000   -12.061   -75.501    13.618   105.971   -22.997    97.711    -9.923  -132.007 
 3910.000000   -12.034   -78.597    13.590   102.872   -22.936    95.308    -9.911  -135.069 
 3930.000000   -12.062   -80.065    13.551   101.099   -22.961    93.436    -9.960  -136.975 
 3960.000000   -12.038   -83.166    13.477    98.062   -22.926    91.115    -9.945  -140.026 
 3980.000000   -11.963   -84.722    13.462    95.951   -22.883    89.382    -9.929  -141.829 
 4010.000000   -12.014   -87.512    13.426    92.948   -22.824    86.978    -9.927  -144.724 
 4030.000000   -12.096   -90.019    13.380    91.072   -22.797    85.227    -9.915  -146.660 
 4060.000000   -11.955   -93.069    13.320    87.960   -22.827    82.573    -9.921  -150.080 
 4080.000000   -12.017   -94.553    13.307    85.998   -22.824    80.930    -9.890  -151.813 
 4110.000000   -12.109   -97.916    13.223    83.199   -22.768    78.509    -9.885  -154.834 
 4130.000000   -12.007  -100.123    13.180    81.022   -22.757    76.509    -9.891  -156.754 
