! Infineon Technologies  Discrete & RF Semiconductors
! BGA427
! Si NPN RF SIEGET Grounded Emitter Transistor in SOT343
! VCE =      IC =      
! Common Emitter S-Parameters:                     November  1999
# GHz  S  MA  R  50
!  f         S11            S21            S12            S22
! GHz     MAG   ANG      MAG   ANG      MAG   ANG      MAG   ANG
 0.010  0.6843  -30.1  39.315 -176.3  0.0050  -10.1  0.6594 -138.9
 0.020  0.4817  -47.3  37.277  169.1  0.0034  -35.4  0.7160 -165.1
 0.050  0.2251  -62.2  29.866  165.2  0.0016  -21.8  0.7056 -178.5
 0.100  0.1132  -54.2  27.482  164.3  0.0022   56.7  0.6926  174.4
 0.150  0.0835  -41.1  26.962  161.6  0.0032   71.0  0.6899  170.4
 0.200  0.0788  -24.7  26.504  157.5  0.0050   77.3  0.6748  166.2
 0.250  0.0829  -13.6  26.193  153.5  0.0055   75.8  0.6656  162.2
 0.300  0.0898  -11.5  25.783  149.1  0.0074   77.4  0.6542  158.7
 0.400  0.1081  -12.8  24.819  140.3  0.0091   78.3  0.6242  151.8
 0.500  0.1247  -22.3  23.449  131.5  0.0114   84.8  0.5799  145.5
 0.600  0.1377  -38.5  21.861  124.4  0.0129   82.9  0.5242  143.2
 0.700  0.1361  -51.2  20.640  115.9  0.0159   87.8  0.5114  138.6
 0.800  0.1409  -64.7  18.966  108.6  0.0184   89.5  0.4694  135.4
 0.900  0.1408  -83.0  17.664  102.4  0.0207   92.7  0.4478  135.6
 1.000  0.1413  -95.6  16.350   95.9  0.0246   92.0  0.4302  133.5
 1.100  0.1428 -111.4  14.996   90.3  0.0277   91.6  0.4104  132.8
 1.200  0.1538 -125.4  13.826   85.6  0.0306   91.7  0.4009  133.2
 1.300  0.1558 -138.8  12.836   80.8  0.0344   92.4  0.3957  133.1
 1.400  0.1643 -149.2  11.904   76.8  0.0375   91.5  0.3922  133.2
 1.500  0.1743 -159.6  11.070   72.6  0.0419   90.5  0.3914  132.4
 1.600  0.1849 -169.5  10.309   69.0  0.0448   89.0  0.3947  131.9
 1.700  0.1962 -176.2   9.652   65.7  0.0482   88.7  0.3982  131.4
 1.800  0.2075  174.7   9.051   62.3  0.0518   88.2  0.4008  130.7
 1.900  0.2149  168.8   8.530   59.3  0.0555   86.7  0.4023  130.2
 2.000  0.2202  162.8   8.047   56.4  0.0589   86.6  0.4086  129.3
 2.200  0.2356  152.0   7.211   50.8  0.0669   84.5  0.4164  126.6
 2.400  0.2480  143.3   6.526   45.7  0.0743   83.1  0.4317  124.5
 2.600  0.2614  135.0   5.951   40.8  0.0818   81.2  0.4379  121.5
 2.800  0.2665  127.0   5.468   36.0  0.0890   79.7  0.4516  119.1
 3.000  0.2672  118.6   5.086   30.9  0.0987   77.8  0.4586  116.0
 3.500  0.2371  107.4   4.171   18.7  0.1207   70.5  0.4791  108.0
 4.000  0.2627   99.4   3.501    9.2  0.1376   66.3  0.5020  101.7
 4.500  0.2438   89.9   2.999   -1.0  0.1589   61.0  0.5213   94.8
 5.000  0.2228   82.9   2.574  -10.8  0.1808   55.4  0.5328   87.7
 5.500  0.1986   77.4   2.232  -19.8  0.2032   49.4  0.5426   79.3
 6.000  0.1828   78.8   1.928  -28.7  0.2264   42.6  0.5550   72.1
!
! (c) 1999  Infineon Technologies AG, Munich
