! Copyright - Freescale Semiconductor, Inc., 2009.
! Rev. 0 
! MMG3014NT1 S-Parameters  
! 01/23/2009 
# mhz S ma R 50 
              250         0.621787          174.5531          10.27991           153.751        0.03361084         0.6472782         0.4478337         -171.6105
              300        0.6177838          174.0149          9.929688          148.3032         0.0336374         0.2647022         0.4569983         -171.8777
              350        0.6160678          173.4292          9.892699          143.0693         0.0336596        -0.1243064            0.4647         -172.5221
              400        0.6129564          173.0248          9.534341          138.2855        0.03374048          -0.35186         0.4746256         -173.2739
              450        0.6113824          172.4556          9.586455          133.7981        0.03377489        -0.6021003         0.4834279         -174.0339
              500        0.6109394          171.9678          9.299654          129.7636        0.03382924        -0.8206011         0.4895841         -174.9196
              550        0.6100745          171.4271          9.008824          125.9563        0.03388754         -1.013861          0.496658         -175.7816
              600        0.6101692          170.8805           8.71558          122.4182         0.0339471         -1.221071         0.5028656         -176.7667
              650        0.6103417          170.4375          8.363104           119.215        0.03399187         -1.370145         0.5077451         -177.8625
              700        0.6113279          169.8997          8.064283          116.1625        0.03404646         -1.558378         0.5121145         -178.9116
              750        0.6124493          169.4728          7.750178           113.323        0.03412226         -1.690148         0.5162163            179.98
              800        0.6261654          171.8237           7.30844          110.8815        0.03348881         -1.651193         0.5348043          175.5485
              850        0.6252635          171.3551          7.072576           108.358        0.03367838         -1.796914          0.535167          174.5036
              900        0.6245745          170.8649          6.837579          105.9612        0.03386769         -1.979022         0.5355836          173.5425
              950        0.6239951          170.2451          6.628728          103.6649        0.03405008         -2.155948         0.5359924          172.6477
             1000        0.6239725          169.5949           6.42221           101.489        0.03423292         -2.303422         0.5367863          171.7648
             1050        0.6242077          168.9379          6.226995          99.37448        0.03440884         -2.471132         0.5370999           170.872
             1100        0.6252059          168.2504          6.044159          97.34829        0.03458312         -2.654292         0.5377635          169.9482
             1150        0.6264631          167.5802          5.866083          95.39868        0.03474443         -2.834915          0.538313           169.071
             1200        0.6280228           166.891          5.699589          93.49874        0.03490942         -3.020918         0.5387704          168.1598
             1250        0.6293941          166.1401          5.545316          91.67774         0.0350678         -3.203969         0.5398505          167.3096
             1300        0.6319267          165.3937          5.392775           89.9062         0.0352241          -3.37457         0.5402391          166.4659
             1350        0.6344116          164.6472          5.256582          88.15911         0.0353708          -3.58212         0.5413174          165.6181
             1400        0.6364825           163.835          5.116735          86.47291        0.03551034         -3.770241         0.5426051          164.8556
             1450        0.6396933          163.0027          4.987663          84.83796        0.03562222         -3.976647         0.5439447          164.0597
             1500         0.642508          162.1692          4.863935          83.23152        0.03573658         -4.166315         0.5453758          163.3281
             1550        0.6459121          161.3483          4.741919          81.65775        0.03585823         -4.353959         0.5470693          162.5783
             1600        0.6493474          160.5363          4.630219          80.11703        0.03596376         -4.545357         0.5488418          161.8288
             1650        0.6528566          159.6985          4.516792          78.58274        0.03607833         -4.767327         0.5503035          161.0744
             1700        0.6567853          158.8746          4.413782          77.10502        0.03616454         -5.000617         0.5521953          160.3337
             1750        0.6608496          158.0488          4.312183          75.61951        0.03626687         -5.230211         0.5538233           159.619
             1800        0.6647547          157.2293          4.215252          74.15463        0.03635461         -5.481534         0.5556099          158.8779
             1850        0.6685803          156.3716          4.122818          72.70844        0.03644064         -5.734117         0.5574417          158.1681
             1900        0.6730449          155.5316          4.033001          71.27206        0.03651923         -6.005602         0.5587755          157.4457
             1950         0.677062          154.7133          3.947458          69.82457        0.03659726         -6.279022         0.5603199          156.7086
             2000        0.6807582          153.8406          3.864373          68.39053        0.03666853         -6.579636          0.561981          155.9724
             2050        0.6849274          152.9987           3.78273          66.96149        0.03674045         -6.890408         0.5629352          155.1867
             2100        0.6889775          152.1556          3.707271          65.53503        0.03681812         -7.221454          0.563778          154.4095
             2150        0.6928943          151.3221          3.632504          64.11179        0.03688624         -7.577638         0.5643962          153.6192
             2200        0.6970268          150.4538          3.562038          62.68553        0.03694114         -7.944409         0.5647841          152.8044
             2250        0.7008843          149.5738          3.493973          61.25956        0.03700383         -8.315791         0.5647205           151.985
             2300        0.7047351            148.69          3.425735          59.82001        0.03706123         -8.698045         0.5646055           151.157
             2350        0.7085541          147.7971          3.363264          58.40662        0.03713746         -9.086326         0.5644406          150.3317
             2400        0.7118986          146.9051          3.298877          56.96062        0.03718555         -9.493551         0.5637765          149.4738
             2450        0.7150697          145.9626          3.239625          55.56475         0.0372544         -9.918499         0.5633523          148.6024
             2500        0.7186542          145.0211           3.18077           54.1358        0.03731476         -10.33279         0.5624129          147.7415
             2550        0.7216808          144.0922          3.124406          52.72024        0.03737811          -10.7709         0.5616047          146.8328
             2600         0.724467          143.1346          3.070575          51.32249        0.03743582         -11.20316         0.5611571          145.9278
             2650        0.7277128          142.1749          3.017466          49.91982        0.03750355         -11.60651         0.5598425          144.9771
             2700        0.7302377          141.1919          2.967815          48.53493        0.03759217         -12.03478         0.5592892          144.0356
             2750        0.7330627           140.192          2.919662          47.14344        0.03770729         -12.44822         0.5585504          143.1045
             2800        0.7356606          139.2282          2.872301          45.76454        0.03781699         -12.90082         0.5578767          142.1019
             2850        0.7377249          138.2047          2.827893           44.3904        0.03795791         -13.35122         0.5574447          141.1338
             2900        0.7404658          137.2148          2.784209          43.02538        0.03809353         -13.83576         0.5569615          140.1452
             2950         0.742375          136.2008          2.742992          41.66174         0.0382364         -14.37436         0.5569055          139.1447
             3000        0.7446676          135.1803          2.703069            40.315        0.03835203         -14.85514         0.5567032          138.1211
             3050        0.7467674          134.1728          2.663995          38.96899        0.03849894         -15.37769         0.5567693          137.0989
             3100        0.7491057          133.1405           2.62734          37.62915        0.03863427         -15.87537         0.5568992          136.0809
             3150        0.7513467          132.1438          2.590411          36.29153        0.03878738         -16.43228           0.55721          135.0923
             3200        0.7532101          131.1169          2.555103          34.97475        0.03891953         -16.98205         0.5576748          134.1206
             3250        0.7557553           130.125          2.521067          33.67957        0.03901918         -17.51336         0.5582392          133.1661
             3300        0.7578338          129.1116          2.487455          32.35748        0.03914421         -17.98977         0.5586154          132.2226
             3350        0.7598771          128.1064          2.455326          31.08439        0.03927639         -18.49567         0.5596551           131.309
             3400        0.7617719           127.107          2.422236          29.80949        0.03937446         -18.97747         0.5601467          130.4509
             3450        0.7638184          126.1152          2.391538          28.56809        0.03950839         -19.49164         0.5611529          129.6086
             3500        0.7659005          125.1385          2.360819          27.34299        0.03964522         -19.97932         0.5620357          128.8525
             3550        0.7680235           124.172           2.33086          26.11646        0.03974553         -20.48339         0.5628381          128.0894
             3600        0.7696752          123.2215          2.301913          24.93038        0.03983475         -20.96475         0.5641239          127.3863
             3650         0.771598          122.2636          2.272991          23.74629        0.03993942         -21.37358         0.5649173          126.7319
             3700        0.7736781          121.3365          2.245814          22.60103        0.04003235         -21.82743         0.5659631           126.123
             3750        0.7751582           120.402          2.218241          21.46473        0.04014189         -22.22194          0.567023          125.6132
             3800        0.7770124          119.4833          2.192139          20.35351        0.04025697         -22.62936         0.5679312          125.0846
             3850        0.7783597           118.565          2.166531           19.2463        0.04037734         -23.03491         0.5689908          124.6065
             3900        0.7800411           117.636          2.142008          18.13869        0.04049271         -23.44235         0.5698525          124.1512
             3950        0.7812142          116.7371          2.117688          17.05321        0.04060942         -23.86479         0.5708783          123.7168
             4000        0.7827367           115.807           2.09129           16.0385        0.04066603         -24.19558         0.5722102          123.4727
