!Mini-Circuits Laboratory
!S-Parameters
!Model: MAR-6SM+
!Run / Lot / Date Code: N/A / AH182-001-02-22EV / 1052
!Fixture: N/A; TB-289+
!AUTO PORT EXTENSION DONE: PORT<1>=94.68ps; PORT<2>=95.92ps
!Network Analyzer: PNA-X N5242A - 423 4 ports;  Serial number: 71256
!Date: 3/16/2011
!S/N: Unit# 1
!
# Hz  S  dB  R  50
!Frequency    S11 dB        S11 Deg       S21 dB        S21 Deg       S12 dB        S12 Deg       S22 dB        S22 Deg       
10000100      -37.8046303   17.2836704    21.9611397    178.9042969   -24.1064396   -0.1622968    -30.2643509   161.5191040   
15000100      -37.0378990   27.2649307    21.9546700    178.7453003   -24.1643009   1.4370710     -30.6576996   158.5052948   
20000100      -34.8648491   14.9385300    21.9296398    178.4940948   -24.1513691   1.4793390     -31.4323692   165.5962067   
25000100      -35.3188095   4.2536802     21.9121895    178.2039032   -24.1540203   0.6780995     -31.0953693   173.6721039   
30000100      -34.1551590   9.1318398     21.8937397    177.9743958   -24.1456795   0.7002637     -31.2110100   171.8235931   
35000100      -33.4350586   7.8551531     21.8707905    177.7642975   -24.1576099   0.3425142     -31.5669899   173.2622986   
40000100      -33.4024391   7.0941000     21.8645096    177.5182037   -24.1518898   0.3722100     -31.5872898   175.8899994   
45000100      -33.2668304   7.9757910     21.8627701    177.2510071   -24.1274891   0.5663621     -31.7891407   176.4974060   
50000100      -33.4577293   6.0713048     21.8625603    176.9998932   -24.2261009   0.5859869     -31.7937794   177.9409027   
55000100      -33.9280586   8.6498442     21.8492603    176.8359985   -24.1572399   0.2078356     -31.5849209   179.6994934   
60000100      -33.7127991   9.1931515     21.8589001    176.5144958   -24.1708508   0.2110043     -31.7162991   -178.4360046  
65000100      -33.9989510   10.2579699    21.8587093    176.2086945   -24.1674500   0.4666529     -31.3762207   -178.7413940  
70000100      -34.1265602   11.0642595    21.8575191    175.9243927   -24.2268791   0.5469106     -31.1989002   -177.3665009  
75000100      -33.9345512   13.6392899    21.8593197    175.6694031   -24.1786709   0.5644611     -31.0305004   -178.9665985  
80000100      -33.9350586   13.1249304    21.8566208    175.3439026   -24.1622791   0.5800156     -31.1239204   -177.4051056  
85000100      -33.4302406   14.7220602    21.8505001    175.0702972   -24.1760006   0.8175523     -31.3244991   -178.4990997  
90000100      -33.3513718   14.7481403    21.8379898    174.7942963   -24.1686306   0.6588562     -31.0744209   -177.8724976  
95000100      -33.0987396   15.4658604    21.8327694    174.5099945   -24.1819496   0.9116073     -31.1642208   -178.3106995  
100000100     -32.8694916   14.1714697    21.8252907    174.2216034   -24.1886692   0.9851651     -31.1877098   -177.7779999  
105000100     -32.5477715   15.8897495    21.8113194    173.9179993   -24.1690598   0.9425974     -31.3820496   -177.9804993  
110000100     -32.3602791   15.7615499    21.8072395    173.6410065   -24.1453094   0.9612108     -31.3558998   -177.0814056  
115000100     -32.4616318   15.8329201    21.8000908    173.3755035   -24.1859493   1.0473059     -31.2521496   -177.0175934  
120000100     -32.3424110   15.0837002    21.7941494    173.1269989   -24.1541004   1.1264660     -31.1812305   -176.0162048  
125000100     -32.2121811   15.0440598    21.7885094    172.8506012   -24.1757507   0.9785326     -31.1758499   -174.5789032  
130000100     -32.3264618   15.6246099    21.7800598    172.5839996   -24.2045498   1.4264309     -31.2856598   -174.1286926  
135000100     -32.2529297   15.0892000    21.7863293    172.3618927   -24.1526604   1.1730109     -30.9621506   -174.3939972  
140000100     -32.2298203   15.8077297    21.7867794    172.1000977   -24.1821995   1.1820940     -30.9364395   -174.6174927  
145000100     -32.4216614   15.7927904    21.7860508    171.8215942   -24.1769295   1.2743469     -30.9192905   -174.4674988  
150000100     -32.5139313   16.9382801    21.7859592    171.5455017   -24.1833305   1.5702590     -30.7394295   -175.6887970  
155000100     -32.5873108   17.4277000    21.7862701    171.2807007   -24.1826706   1.4813770     -30.7577000   -175.3536072  
160000100     -32.5557899   17.5180206    21.7864494    171.0140076   -24.2161903   1.6577920     -30.8281002   -176.0756073  
165000100     -32.5877609   18.7827492    21.7878399    170.7162018   -24.1865406   1.3901570     -30.8002796   -174.5957031  
170000100     -32.6485214   22.1518192    21.7891502    170.4508057   -24.2094707   1.7252800     -30.8370705   -175.8013000  
175000100     -32.7272301   20.4208698    21.7841892    170.1656036   -24.1715508   1.4520530     -30.7138405   -173.4176025  
180000100     -32.5299187   21.8090801    21.7763805    169.8731995   -24.1944199   1.8217371     -30.8321400   -173.9098969  
185000100     -32.3705406   22.3941593    21.7690392    169.5953064   -24.1607609   1.5683820     -30.7300797   -173.9284973  
190000100     -31.9818001   22.0558491    21.7570305    169.3273010   -24.1674099   1.7864190     -30.8704109   -174.8755035  
195000100     -31.9172096   21.2782803    21.7470093    169.0623016   -24.1764507   1.9296170     -30.8022194   -174.2940979  
200000100     -31.6732006   20.3509007    21.7393093    168.7922974   -24.1768799   2.0130799     -30.7594299   -174.1878052  
205000100     -31.8338795   21.3137302    21.7308407    168.5525970   -24.1894302   2.0548730     -30.6286297   -172.1078033  
210000100     -31.7490101   21.9171009    21.7275505    168.2769012   -24.1993999   2.0357111     -30.8442001   -171.9019928  
215000100     -31.6983395   22.2054100    21.7236805    168.0449066   -24.1350307   1.8157361     -30.8175297   -172.8533020  
220000100     -31.8448391   22.6567097    21.7233295    167.7438965   -24.2187405   2.2656219     -30.7081108   -172.3583984  
225000100     -31.6656799   23.1968403    21.7216206    167.5075989   -24.1634197   2.2996080     -30.8262005   -171.9243011  
230000100     -31.9717102   22.5110092    21.7206898    167.2389984   -24.1848698   2.2688000     -30.6019096   -171.3695984  
235000100     -31.7488899   24.1772194    21.7194195    166.9633026   -24.1820107   2.2780390     -30.5152302   -171.5269928  
240000100     -32.0358086   24.4850807    21.7157707    166.7075958   -24.1621609   2.5944600     -30.3479996   -171.3556061  
245000100     -31.9016895   25.1452904    21.7094707    166.4411011   -24.2062893   2.5463860     -30.3130493   -172.7776947  
250000100     -31.5371609   25.9699802    21.6984806    166.1820984   -24.1984005   2.3732560     -30.2126904   -174.2039032  
255000100     -31.5428905   26.2679996    21.6935902    165.8706055   -24.1828499   2.6827691     -30.4066601   -171.9091949  
260000100     -31.6631508   25.0949402    21.6883698    165.6338043   -24.2070503   2.6855590     -30.1526508   -172.6347046  
265000100     -31.6466007   23.9110107    21.6842995    165.3576050   -24.1761894   2.6464660     -30.4115105   -172.6172028  
270000100     -31.7478008   25.9024200    21.6841908    165.0850067   -24.1922894   2.3897040     -30.3532295   -172.0254974  
275000100     -31.6202507   25.2301807    21.6774693    164.7958069   -24.1662197   3.2871070     -30.3414803   -171.6053009  
280000100     -31.6959591   25.7045097    21.6687298    164.5063019   -24.2183800   2.8672249     -30.1333599   -171.5061035  
285000100     -31.1652603   29.0297508    21.6629009    164.2494965   -24.1404800   3.0579140     -30.3175392   -172.4326019  
290000100     -31.1143494   25.5859394    21.6534309    163.9698944   -24.1581497   2.8434510     -30.2551804   -170.8674927  
295000100     -30.9722004   25.5853806    21.6482906    163.6829987   -24.1769009   2.8474309     -30.4458904   -170.3677979  
300000100     -30.9230995   25.5895500    21.6375408    163.4624939   -24.1387997   2.7996769     -30.2470207   -170.8146057  
305000100     -30.6571007   25.2689495    21.6307907    163.2227020   -24.1516991   3.1948459     -30.3664608   -169.6531067  
310000100     -30.8662109   25.8798008    21.6266899    162.9335938   -24.1847000   3.0291629     -30.0625000   -170.6582031  
315000100     -30.7030907   26.9491901    21.6175194    162.7057037   -24.1579399   3.1543679     -30.1308594   -170.2418060  
320000100     -30.7408695   28.3984909    21.6213398    162.4611053   -24.2146702   3.2453771     -30.1427898   -170.7890930  
325000100     -30.9115791   27.1620598    21.6203308    162.1896057   -24.2162094   3.3161321     -30.0175209   -170.3518982  
330000100     -30.7495098   27.4481697    21.6151791    161.8889008   -24.1586304   3.4432490     -30.0825291   -170.2012939  
335000100     -31.0307808   28.1392708    21.6063194    161.6421967   -24.1520500   3.4763391     -29.8568001   -171.4235992  
340000100     -30.9874592   29.8752708    21.6030903    161.4049072   -24.2116299   3.3812211     -29.9932404   -170.4645996  
345000100     -30.6892204   28.1124992    21.5957909    161.1139984   -24.1674900   3.5156460     -30.0799503   -170.2481995  
350000100     -30.5823193   29.8398209    21.5865002    160.8984070   -24.1299305   3.5766380     -29.7970505   -170.4069061  
355000100     -30.7199497   28.2223797    21.5800991    160.6009064   -24.2011204   3.7256031     -29.7881393   -170.8740997  
360000100     -30.5076599   28.8485394    21.5657406    160.3571930   -24.1534805   3.3371761     -30.0043793   -170.4627991  
365000100     -30.5081291   29.0977802    21.5592594    160.1094971   -24.1567307   3.6291621     -29.7228107   -170.6309052  
370000100     -30.3837795   28.8000698    21.5501308    159.8668976   -24.1626396   3.8552070     -29.7489109   -169.9232941  
375000100     -30.5548897   28.4888000    21.5451508    159.6063995   -24.1403694   3.9858501     -29.7027206   -170.3643951  
380000100     -30.2267094   27.9913597    21.5411301    159.3302002   -24.1133709   3.9712441     -29.6602306   -169.6405029  
385000100     -30.4037209   28.9632893    21.5381203    159.0803986   -24.1657600   3.9206181     -29.6263599   -169.9743042  
390000100     -30.5218201   30.3965302    21.5291996    158.8218994   -24.0609207   4.2941761     -29.5524197   -169.8347015  
395000100     -30.3717308   29.9172993    21.5245609    158.5348969   -24.1206894   4.1523890     -29.5394096   -168.3796997  
400000100     -30.2392406   28.2470703    21.5194206    158.2413940   -24.1415691   4.2306619     -29.5066891   -169.0708008  
405000100     -30.3894100   29.9295998    21.5123692    158.0106049   -24.1322708   4.2617140     -29.5250893   -169.8453064  
410000100     -30.0954399   29.8945408    21.5086899    157.7490997   -24.1317291   4.0180368     -29.6168308   -169.8341064  
415000100     -30.1332893   29.4810696    21.4958897    157.4521027   -24.1632500   4.2933931     -29.3090706   -169.4266968  
420000100     -29.8712997   30.2932301    21.4877205    157.2187042   -24.1325798   4.3791561     -29.2946701   -169.8854065  
425000100     -29.9341297   30.8384800    21.4719391    156.9526978   -24.1412907   4.7481518     -29.3564301   -170.0988007  
430000100     -29.7858391   30.0543995    21.4715500    156.6931000   -24.2006893   4.5153041     -29.2457199   -169.1974030  
435000100     -30.0678501   31.1443901    21.4557495    156.4893036   -24.1192894   4.9852538     -29.1762409   -170.0457001  
440000100     -29.8064804   30.7084808    21.4566498    156.2100983   -24.1201897   4.6852450     -29.4661694   -170.1614990  
445000100     -30.0291405   32.2947693    21.4525909    155.9387970   -24.1369705   4.6422501     -29.2051392   -169.6654968  
450000100     -29.8973007   32.6581306    21.4456100    155.6782074   -24.1168995   4.4591470     -29.0808296   -169.7503052  
455000100     -29.7637901   32.2601395    21.4361095    155.3865967   -24.1123695   4.6951151     -29.0857105   -168.7774963  
460000100     -29.5179806   31.9891491    21.4312401    155.1781006   -24.0989799   4.7192578     -29.0499001   -169.8981018  
465000100     -29.6722107   32.1094398    21.4209709    154.9127045   -24.1353092   4.6545439     -29.0082703   -168.0169983  
470000100     -29.6008892   31.1325302    21.4112396    154.6670990   -24.0935001   4.9802570     -28.8903408   -169.5847931  
475000100     -29.5170403   32.6901207    21.3942604    154.4347992   -24.1428299   4.8237271     -28.9675598   -168.4454041  
480000100     -29.2626801   30.7746906    21.3908806    154.1497040   -24.1250401   4.9952350     -29.0523796   -168.7106018  
485000100     -29.2936192   31.0925102    21.3790607    153.9073944   -24.0569801   5.1105261     -28.8292198   -169.3119049  
490000100     -29.1989403   30.4329605    21.3685207    153.6851959   -24.1138592   4.8847661     -28.9907894   -169.5854950  
495000100     -29.3614502   30.2597599    21.3619499    153.4519043   -24.1140308   5.2816410     -28.8150406   -168.6006927  
500000100     -29.4151707   29.6395397    21.3502502    153.1988983   -24.1123199   5.2689409     -28.5811195   -168.5144958  
505000100     -29.3181801   30.2934093    21.3466606    152.9286041   -24.1094894   4.9518161     -28.5496693   -167.9649963  
510000100     -29.5102501   30.4437504    21.3431702    152.6669006   -24.0642109   5.2914662     -28.4204407   -168.3206024  
515000100     -29.4325504   30.2565403    21.3355598    152.4008942   -24.0899105   5.2861481     -28.4449501   -168.9555969  
520000100     -29.3579292   31.9520092    21.3288898    152.1779022   -24.1112003   5.5048170     -28.4906693   -169.0290070  
525000100     -29.5575409   30.9972801    21.3226891    151.8881989   -24.0482101   5.7007942     -28.4625492   -168.9846039  
530000100     -29.4251709   32.1535683    21.3143806    151.6450958   -24.0692196   5.2042928     -28.3369102   -168.9181976  
535000100     -29.4045391   31.9836102    21.3010693    151.4008942   -24.0684204   5.4878802     -28.4347191   -169.9494934  
540000100     -29.4396992   31.3418999    21.2921295    151.1470032   -24.0807800   5.2310510     -28.3837605   -169.1278992  
545000100     -29.2171001   31.0369396    21.2785206    150.8892059   -24.0871391   5.8359938     -28.1793709   -169.0747986  
550000100     -29.2422199   30.4777203    21.2670498    150.6475067   -24.0602703   5.5493889     -28.1527996   -168.0764008  
555000100     -29.2543507   29.0695591    21.2599907    150.4015045   -24.0899792   5.6273098     -28.2114601   -166.9449005  
560000100     -29.0768909   30.1766396    21.2443104    150.1880951   -24.0685101   5.4510331     -27.9540291   -168.5751038  
565000100     -28.9332809   29.9163494    21.2419891    149.9801941   -24.0485096   5.7324491     -28.1001701   -169.5186005  
570000100     -29.4659691   30.9340706    21.2304707    149.6887054   -24.0903492   6.1081429     -27.8540192   -169.4548950  
575000100     -29.2337608   31.1304607    21.2285805    149.4629059   -24.0549793   5.7359819     -27.8437805   -168.0292969  
580000100     -29.2037506   31.9139595    21.2247601    149.1820984   -24.0663891   6.0746708     -27.8352108   -169.4091034  
585000100     -29.2597599   31.5689392    21.2184906    148.9071045   -24.0443001   6.3051109     -27.9300900   -169.7415009  
590000100     -28.9682999   31.5727100    21.2080898    148.6858063   -24.0661907   6.2003198     -27.7289009   -169.0901947  
595000100     -28.8430500   31.2691498    21.1886292    148.4275055   -24.0792694   6.3721962     -27.8552208   -169.2653046  
600000100     -28.8589706   30.2541409    21.1767902    148.1759949   -24.0655994   6.2246199     -27.7980099   -168.5950928  
605000100     -28.8502502   29.5268097    21.1601009    147.9557037   -24.0596600   6.1884971     -27.7148895   -168.8818054  
610000100     -28.7323608   28.6968708    21.1483498    147.7449036   -24.0159492   6.4496832     -27.7564392   -169.2969055  
615000100     -28.7738094   28.6898994    21.1365700    147.4974060   -24.0571003   6.3218231     -27.5492096   -169.2492065  
620000100     -28.8888206   29.7346401    21.1270008    147.2427979   -24.0131397   6.3877740     -27.4845200   -169.9515991  
625000100     -29.0574093   29.3940601    21.1203308    146.9945984   -24.0552292   6.1967511     -27.3288708   -169.5290985  
630000100     -28.8638592   29.5365696    21.1183796    146.7348022   -24.0139999   6.2674541     -27.3440895   -169.2471924  
635000100     -29.1320705   31.4102993    21.1122208    146.5104980   -24.0809002   6.6427212     -27.4435501   -169.9638062  
640000100     -28.9281902   30.5323391    21.1060600    146.2536926   -24.0561295   6.7071519     -27.3982391   -169.7863007  
645000100     -28.9414005   31.1128292    21.0950298    146.0121002   -23.9900799   6.5728531     -27.4259205   -169.7436981  
650000100     -28.8501606   30.1975002    21.0800896    145.7364044   -24.0501900   6.4473939     -27.3729000   -169.1065979  
655000100     -28.7399693   30.6073303    21.0643806    145.5391998   -24.0099697   6.6589012     -27.3531208   -170.1484985  
660000100     -28.6532402   28.9165096    21.0517597    145.3114929   -24.0043106   6.6745639     -27.1908798   -169.9297028  
665000100     -28.6611595   27.8765106    21.0400600    145.0619049   -24.0088406   6.7946100     -27.1813698   -170.3580017  
670000100     -28.7546692   29.0481701    21.0273609    144.8426056   -23.9792309   7.0618520     -26.9909592   -169.6009979  
675000100     -28.6158905   27.8871498    21.0193005    144.5885010   -24.0123596   6.9403481     -26.9928207   -170.5747070  
680000100     -28.6095905   28.2902908    21.0152092    144.3421936   -24.0022202   7.2296090     -27.0061703   -170.5675049  
685000100     -28.7105293   29.4712505    21.0072708    144.1313934   -24.0058804   7.1547241     -27.0578403   -170.8565063  
690000100     -28.8258591   28.7753201    21.0021191    143.8751068   -23.9914398   7.1966429     -27.0153103   -170.3852997  
695000100     -28.7349701   28.5127296    20.9956894    143.6273041   -23.9697609   7.0179582     -26.8515701   -169.7559967  
700000100     -28.6054897   28.9139996    20.9826698    143.3990021   -24.0038204   7.3330178     -26.9717293   -170.1802063  
705000100     -28.6267700   29.3458595    20.9702606    143.1295013   -23.9736805   7.4104452     -26.7667007   -170.5086060  
710000100     -28.6070194   28.8228893    20.9551792    142.9002075   -23.9747295   7.2783999     -26.7494793   -170.9640045  
715000100     -28.6354694   28.6164703    20.9395695    142.6378021   -23.9770603   7.4940190     -26.5933609   -170.4160004  
720000100     -28.6022091   29.1870193    20.9311790    142.4335938   -23.9943504   7.0232220     -26.6741505   -170.5084076  
725000100     -28.5339909   28.4149895    20.9131393    142.2277069   -23.9717598   7.5309901     -26.5244503   -171.0955048  
730000100     -28.5270309   27.7412491    20.9035892    141.9810944   -23.9834309   7.4808021     -26.5198898   -171.1988983  
735000100     -28.5217609   29.0775108    20.8938808    141.7434998   -23.9728203   7.4322691     -26.4563808   -171.3961945  
740000100     -28.6090794   28.8017807    20.8886909    141.5157928   -23.9504795   7.9558988     -26.5371704   -171.8005981  
745000100     -28.5095692   28.3718300    20.8779907    141.2628021   -23.9714394   7.5812020     -26.4626102   -171.3981934  
750000100     -28.5172291   29.2506104    20.8651505    141.0310974   -23.9428005   7.8149571     -26.4090595   -171.5364075  
755000100     -28.4848900   29.1821003    20.8595905    140.7725067   -23.9497204   8.0183125     -26.4250507   -171.4606018  
760000100     -28.4968891   27.9280891    20.8453102    140.5574951   -23.9801006   8.0511732     -26.3693295   -171.7171936  
765000100     -28.4626999   27.5322304    20.8320904    140.3193970   -23.9594193   7.7732859     -26.3478203   -171.6230011  
